
T0CE4 000:419 SEGGER J-Link V4.98e Log File (0000ms, 0323ms total)
T0CE4 000:419 DLL Compiled: May  5 2015 11:00:52 (0000ms, 0323ms total)
T0CE4 000:419 Logging started @ 2026-05-07 10:32 (0000ms, 0323ms total)
T0CE4 000:419 JLINK_SetWarnOutHandler(...) (0000ms, 0323ms total)
T0CE4 000:419 JLINK_OpenEx(...)
Firmware: J-Link ARM V8 compiled Nov 28 2014 13:44:46
Hardware: V8.00
S/N: 788529859
Feature(s): RDI,FlashDL,FlashBP,JFlash,GDB  returns O.K. (0321ms, 0644ms total)
T0CE4 000:740 JLINK_SetErrorOutHandler(...) (0000ms, 0644ms total)
T0CE4 000:740 JLINK_ExecCommand("ProjectFile = "D:\PRG\davicom\mh2203\SDK\ModuleDemo\GPIO\GPIO_IOOut\USER\JLinkSettings.ini"", ...)Device "UNSPECIFIED" selected.  returns 0x00 (0002ms, 0646ms total)
T0CE4 000:742 JLINK_ExecCommand("Device = MH2203CBT6", ...)Device "UNSPECIFIED" selected.  returns 0x00 (0001ms, 0647ms total)
T0CE4 000:743 JLINK_ExecCommand("DisableConnectionTimeout", ...)  returns 0x01 (0000ms, 0647ms total)
T0CE4 000:743 JLINK_GetHardwareVersion()  returns 0x13880 (0000ms, 0647ms total)
T0CE4 000:743 JLINK_GetDLLVersion()  returns 49805 (0000ms, 0647ms total)
T0CE4 000:743 JLINK_GetFirmwareString(...) (0000ms, 0647ms total)
T0CE4 000:744 JLINK_GetDLLVersion()  returns 49805 (0000ms, 0647ms total)
T0CE4 000:744 JLINK_GetCompileDateTime() (0000ms, 0647ms total)
T0CE4 000:745 JLINK_GetFirmwareString(...) (0000ms, 0647ms total)
T0CE4 000:745 JLINK_GetHardwareVersion()  returns 0x13880 (0000ms, 0647ms total)
T0CE4 000:746 JLINK_TIF_Select(JLINKARM_TIF_SWD)  returns 0x00 (0002ms, 0649ms total)
T0CE4 000:748 JLINK_SetSpeed(1000) (0001ms, 0650ms total)
T0CE4 000:749 JLINK_GetId() >0x108 TIF>Found SWD-DP with ID 0x1BA01477 >0x0D TIF> >0x21 TIF> >0x0D TIF> >0x28 TIF> >0x0D TIF> >0x28 TIF> >0x0D TIF> >0x21 TIF> >0x0D TIF> >0x28 TIF> >0x0D TIF> >0x21 TIF> >0x0D TIF> >0x21 TIF> >0x0D TIF> >0x21 TIF> >0x0D TIF> >0x21 TIF> >0x0D TIF> >0x28 TIF> >0x0D TIF> >0x28 TIF> >0x0D TIF> >0x21 TIF> >0x0D TIF> >0x28 TIF> >0x0D TIF> >0x28 TIF> >0x0D TIF> >0x28 TIF> >0x0D TIF> >0x21 TIF> >0x0D TIF> >0x21 TIF> >0x0D TIF> >0x28 TIF> >0x0D TIF> >0x21 TIF> >0x0D TIF>
 >0x21 TIF>Found Cortex-M3 r2p0, Little endian. -- CPU_WriteMem(4 bytes @ 0xE0002000) -- CPU_ReadMem(4 bytes @ 0xE000EDF0) -- CPU_ReadMem(4 bytes @ 0xE0002000)FPUnit: 6 code (BP) slots and 2 literal slots -- CPU_ReadMem(4 bytes @ 0xE000EDFC) -- CPU_ReadMem(4 bytes @ 0xE0001000) -- CPU_WriteMem(4 bytes @ 0xE0001000) -- CPU_ReadMem(4 bytes @ 0xE000ED88) -- CPU_WriteMem(4 bytes @ 0xE000ED88) -- CPU_ReadMem(4 bytes @ 0xE000ED88) -- CPU_WriteMem(4 bytes @ 0xE000ED88)CoreSight components:ROMTbl 0 @ E00FF000
 -- CPU_ReadMem(16 bytes @ 0xE00FF000) -- CPU_ReadMem(16 bytes @ 0xE000EFF0) -- CPU_ReadMem(16 bytes @ 0xE000EFE0)ROMTbl 0 [0]: FFF0F000, CID: B105E00D, PID: 002BB000 SCS -- CPU_ReadMem(16 bytes @ 0xE0001FF0) -- CPU_ReadMem(16 bytes @ 0xE0001FE0)ROMTbl 0 [1]: FFF02000, CID: B105E00D, PID: 002BB002 DWT -- CPU_ReadMem(16 bytes @ 0xE0002FF0) -- CPU_ReadMem(16 bytes @ 0xE0002FE0)ROMTbl 0 [2]: FFF03000, CID: B105E00D, PID: 002BB003 FPB -- CPU_ReadMem(16 bytes @ 0xE0000FF0)
 -- CPU_ReadMem(16 bytes @ 0xE0000FE0)ROMTbl 0 [3]: FFF01000, CID: B105E00D, PID: 002BB001 ITM -- CPU_ReadMem(16 bytes @ 0xE00FF010) -- CPU_ReadMem(16 bytes @ 0xE0040FF0) -- CPU_ReadMem(16 bytes @ 0xE0040FE0)ROMTbl 0 [4]: FFF41000, CID: B105900D, PID: 002BB923 TPIU-Lite -- CPU_ReadMem(16 bytes @ 0xE0041FF0) -- CPU_ReadMem(16 bytes @ 0xE0041FE0)ROMTbl 0 [5]: FFF42000, CID: B105900D, PID: 002BB924 ETM-M3 >0x0D TIF> >0x21 TIF>  returns 0x1BA01477 (0112ms, 0762ms total)
T0CE4 000:861 JLINK_GetDLLVersion()  returns 49805 (0000ms, 0762ms total)
T0CE4 000:861 JLINK_CORE_GetFound()  returns 0x30000FF (0000ms, 0762ms total)
T0CE4 000:861 JLINK_GetDebugInfo(0x100) -- Value=0xE00FF003  returns 0x00 (0000ms, 0762ms total)
T0CE4 000:862 JLINK_ReadMem (0xE00FF000, 0x0020 Bytes, ...) -- CPU is running -- CPU_ReadMem(32 bytes @ 0xE00FF000) - Data: 03 F0 F0 FF 03 20 F0 FF 03 30 F0 FF 03 10 F0 FF ...  returns 0x00 (0001ms, 0763ms total)
T0CE4 000:863 JLINK_ReadMem (0xE000EFF0, 0x0010 Bytes, ...) -- CPU is running -- CPU_ReadMem(16 bytes @ 0xE000EFF0) - Data: 0D 00 00 00 E0 00 00 00 05 00 00 00 B1 00 00 00  returns 0x00 (0002ms, 0765ms total)
T0CE4 000:865 JLINK_ReadMem (0xE000EFD0, 0x0020 Bytes, ...) -- CPU is running -- CPU_ReadMem(32 bytes @ 0xE000EFD0) - Data: 04 00 00 00 00 00 00 00 00 00 00 00 00 00 00 00 ...  returns 0x00 (0002ms, 0767ms total)
T0CE4 000:867 JLINK_ReadMem (0xE0001FF0, 0x0010 Bytes, ...) -- CPU is running -- CPU_ReadMem(16 bytes @ 0xE0001FF0) - Data: 0D 00 00 00 E0 00 00 00 05 00 00 00 B1 00 00 00  returns 0x00 (0001ms, 0768ms total)
T0CE4 000:868 JLINK_ReadMem (0xE0001FD0, 0x0020 Bytes, ...) -- CPU is running -- CPU_ReadMem(32 bytes @ 0xE0001FD0) - Data: 04 00 00 00 00 00 00 00 00 00 00 00 00 00 00 00 ...  returns 0x00 (0002ms, 0770ms total)
T0CE4 000:870 JLINK_ReadMem (0xE0002FF0, 0x0010 Bytes, ...) -- CPU is running -- CPU_ReadMem(16 bytes @ 0xE0002FF0) - Data: 0D 00 00 00 E0 00 00 00 05 00 00 00 B1 00 00 00  returns 0x00 (0001ms, 0771ms total)
T0CE4 000:871 JLINK_ReadMem (0xE0002FD0, 0x0020 Bytes, ...) -- CPU is running -- CPU_ReadMem(32 bytes @ 0xE0002FD0) - Data: 04 00 00 00 00 00 00 00 00 00 00 00 00 00 00 00 ...  returns 0x00 (0002ms, 0773ms total)
T0CE4 000:873 JLINK_ReadMem (0xE0000FF0, 0x0010 Bytes, ...) -- CPU is running -- CPU_ReadMem(16 bytes @ 0xE0000FF0) - Data: 0D 00 00 00 E0 00 00 00 05 00 00 00 B1 00 00 00  returns 0x00 (0001ms, 0774ms total)
T0CE4 000:874 JLINK_ReadMem (0xE0000FD0, 0x0020 Bytes, ...) -- CPU is running -- CPU_ReadMem(32 bytes @ 0xE0000FD0) - Data: 04 00 00 00 00 00 00 00 00 00 00 00 00 00 00 00 ...  returns 0x00 (0002ms, 0776ms total)
T0CE4 000:876 JLINK_ReadMem (0xE0040FF0, 0x0010 Bytes, ...) -- CPU is running -- CPU_ReadMem(16 bytes @ 0xE0040FF0) - Data: 0D 00 00 00 90 00 00 00 05 00 00 00 B1 00 00 00  returns 0x00 (0001ms, 0777ms total)
T0CE4 000:877 JLINK_ReadMem (0xE0040FD0, 0x0020 Bytes, ...) -- CPU is running -- CPU_ReadMem(32 bytes @ 0xE0040FD0) - Data: 04 00 00 00 00 00 00 00 00 00 00 00 00 00 00 00 ...  returns 0x00 (0002ms, 0779ms total)
T0CE4 000:879 JLINK_ReadMem (0xE0041FF0, 0x0010 Bytes, ...) -- CPU is running -- CPU_ReadMem(16 bytes @ 0xE0041FF0) - Data: 0D 00 00 00 90 00 00 00 05 00 00 00 B1 00 00 00  returns 0x00 (0001ms, 0780ms total)
T0CE4 000:880 JLINK_ReadMem (0xE0041FD0, 0x0020 Bytes, ...) -- CPU is running -- CPU_ReadMem(32 bytes @ 0xE0041FD0) - Data: 04 00 00 00 00 00 00 00 00 00 00 00 00 00 00 00 ...  returns 0x00 (0002ms, 0782ms total)
T0CE4 000:882 JLINK_ReadMemU32(0xE000ED00, 0x0001 Items, ...) -- CPU is running -- CPU_ReadMem(4 bytes @ 0xE000ED00) - Data: 30 C2 2F 41  returns 0x01 (0001ms, 0783ms total)
T0CE4 000:883 JLINK_Halt()  returns 0x00 (0005ms, 0788ms total)
T0CE4 000:888 JLINK_IsHalted()  returns TRUE (0001ms, 0789ms total)
T0CE4 000:889 JLINK_ReadMemU32(0xE000EDF0, 0x0001 Items, ...) -- CPU_ReadMem(4 bytes @ 0xE000EDF0) - Data: 03 00 03 00  returns 0x01 (0001ms, 0789ms total)
T0CE4 000:891 JLINK_WriteU32(0xE000EDF0, 0xA05F0003) -- CPU_WriteMem(4 bytes @ 0xE000EDF0)  returns 0x00 (0001ms, 0791ms total)
T0CE4 000:892 JLINK_WriteU32(0xE000EDFC, 0x01000000) -- CPU_WriteMem(4 bytes @ 0xE000EDFC)  returns 0x00 (0001ms, 0792ms total)
T0CE4 000:894 JLINK_GetHWStatus(...)  returns 0x00 (0001ms, 0793ms total)
T0CE4 000:895 JLINK_GetNumBPUnits(Type = 0xFFFFFF00)  returns 0x06 (0001ms, 0794ms total)
T0CE4 000:896 JLINK_GetNumBPUnits(Type = 0xF0)  returns 0x2000 (0000ms, 0794ms total)
T0CE4 000:896 JLINK_GetNumWPUnits()  returns 0x04 (0000ms, 0794ms total)
T0CE4 000:896 JLINK_GetSpeed()  returns 0x3E8 (0000ms, 0794ms total)
T0CE4 000:897 JLINK_ReadMemU32(0xE000E004, 0x0001 Items, ...) -- CPU_ReadMem(4 bytes @ 0xE000E004) - Data: 02 00 00 00  returns 0x01 (0001ms, 0795ms total)
T0CE4 000:898 JLINK_ReadMemU32(0xE000E004, 0x0001 Items, ...) -- CPU_ReadMem(4 bytes @ 0xE000E004) - Data: 02 00 00 00  returns 0x01 (0001ms, 0796ms total)
T0CE4 000:899 JLINK_WriteMem(0xE0001000, 0x001C Bytes, ...) - Data: 01 00 00 00 00 00 00 00 00 00 00 00 00 00 00 00 ... -- CPU_WriteMem(28 bytes @ 0xE0001000)  returns 0x1C (0002ms, 0798ms total)
T0CE4 000:901 JLINK_ReadMem (0xE0001000, 0x001C Bytes, ...) -- CPU_ReadMem(28 bytes @ 0xE0001000) - Data: 01 00 00 40 00 00 00 00 00 00 00 00 00 00 00 00 ...  returns 0x00 (0002ms, 0800ms total)
T0CE4 000:903 JLINK_ReadReg(R15 (PC))  returns 0x080006E8 (0000ms, 0800ms total)
T0CE4 000:903 JLINK_ReadReg(XPSR)  returns 0x41000000 (0000ms, 0800ms total)
T0CE4 001:002 JLINK_SetResetType(JLINKARM_RESET_TYPE_NORMAL)  returns JLINKARM_RESET_TYPE_NORMAL (0000ms, 0800ms total)
T0CE4 001:002 JLINK_Reset() -- CPU_WriteMem(4 bytes @ 0xE000EDF0) -- CPU_WriteMem(4 bytes @ 0xE000EDFC) >0x35 TIF> -- CPU_WriteMem(4 bytes @ 0xE000ED0C) -- CPU_ReadMem(4 bytes @ 0xE000EDF0) -- CPU_ReadMem(4 bytes @ 0xE000EDF0) -- CPU_WriteMem(4 bytes @ 0xE000EDF0) -- CPU_WriteMem(4 bytes @ 0xE000EDFC) -- CPU is running -- CPU_ReadMem(4 bytes @ 0xE000EDF0) -- CPU_WriteMem(4 bytes @ 0xE0002000) -- CPU_ReadMem(4 bytes @ 0xE000EDFC) -- CPU_ReadMem(4 bytes @ 0xE0001000) (0027ms, 0827ms total)
T0CE4 001:029 JLINK_ReadReg(R15 (PC))  returns 0x08000530 (0000ms, 0827ms total)
T0CE4 001:029 JLINK_ReadReg(XPSR)  returns 0x01000000 (0000ms, 0827ms total)
T0CE4 001:031 JLINK_ReadMem (0x08000530, 0x003C Bytes, ...) -- CPU_ReadMem(60 bytes @ 0x08000530) - Data: 06 48 80 47 06 48 00 47 FE E7 FE E7 FE E7 FE E7 ...  returns 0x00 (0002ms, 0829ms total)
T0CE4 003:646 JLINK_ReadMem (0x00000000, 0x0132 Bytes, ...) -- CPU_ReadMem(306 bytes @ 0x00000000) - Data: 30 10 00 20 31 05 00 08 E5 03 00 08 E7 03 00 08 ...  returns 0x00 (0006ms, 0835ms total)
T0BAC 006:100 JLINK_SetBPEx(Addr = 0x08000292, Type = 0xFFFFFFF2)  returns 0x00000001 (0001ms, 0836ms total)
T0BAC 006:101 JLINK_SetBPEx(Addr = 0x08000294, Type = 0xFFFFFFF2)  returns 0x00000002 (0000ms, 0836ms total)
T0BAC 006:101 JLINK_Go() -- CPU_WriteMem(4 bytes @ 0xE0002000) -- CPU_WriteMem(4 bytes @ 0xE0002000) -- CPU_ReadMem(4 bytes @ 0xE0001000) -- CPU_WriteMem(4 bytes @ 0xE0002008) -- CPU_WriteMem(4 bytes @ 0xE000200C) -- CPU_WriteMem(4 bytes @ 0xE0002010) -- CPU_WriteMem(4 bytes @ 0xE0002014) -- CPU_WriteMem(4 bytes @ 0xE0002018) -- CPU_WriteMem(4 bytes @ 0xE000201C) -- CPU_WriteMem(4 bytes @ 0xE0001004) (0012ms, 0848ms total)
T0BAC 006:214 JLINK_IsHalted()  returns TRUE (0006ms, 0854ms total)
T0BAC 006:220 JLINK_Halt()  returns 0x00 (0000ms, 0848ms total)
T0BAC 006:220 JLINK_IsHalted()  returns TRUE (0000ms, 0848ms total)
T0BAC 006:220 JLINK_IsHalted()  returns TRUE (0000ms, 0848ms total)
T0BAC 006:220 JLINK_IsHalted()  returns TRUE (0000ms, 0848ms total)
T0BAC 006:220 JLINK_ReadReg(R15 (PC))  returns 0x08000292 (0000ms, 0848ms total)
T0BAC 006:220 JLINK_ReadReg(XPSR)  returns 0x61000000 (0000ms, 0848ms total)
T0BAC 006:220 JLINK_ClrBPEx(BPHandle = 0x00000001)  returns 0x00 (0000ms, 0848ms total)
T0BAC 006:220 JLINK_ClrBPEx(BPHandle = 0x00000002)  returns 0x00 (0000ms, 0848ms total)
T0BAC 006:220 JLINK_ReadMemU32(0xE000ED30, 0x0001 Items, ...) -- CPU_ReadMem(4 bytes @ 0xE000ED30) - Data: 03 00 00 00  returns 0x01 (0001ms, 0849ms total)
T0BAC 006:221 JLINK_ReadMemU32(0xE0001028, 0x0001 Items, ...) -- CPU_ReadMem(4 bytes @ 0xE0001028) - Data: 00 00 00 00  returns 0x01 (0001ms, 0850ms total)
T0BAC 006:222 JLINK_ReadMemU32(0xE0001038, 0x0001 Items, ...) -- CPU_ReadMem(4 bytes @ 0xE0001038) - Data: 00 02 00 00  returns 0x01 (0001ms, 0851ms total)
T0BAC 006:224 JLINK_ReadMemU32(0xE0001048, 0x0001 Items, ...) -- CPU_ReadMem(4 bytes @ 0xE0001048) - Data: 00 00 00 00  returns 0x01 (0001ms, 0853ms total)
T0BAC 006:225 JLINK_ReadMemU32(0xE0001058, 0x0001 Items, ...) -- CPU_ReadMem(4 bytes @ 0xE0001058) - Data: 00 00 00 00  returns 0x01 (0001ms, 0854ms total)
T0BAC 006:226 JLINK_ReadReg(R0)  returns 0x08000293 (0000ms, 0854ms total)
T0BAC 006:226 JLINK_ReadReg(R1)  returns 0x20001030 (0000ms, 0854ms total)
T0BAC 006:226 JLINK_ReadReg(R2)  returns 0x00000000 (0000ms, 0854ms total)
T0BAC 006:226 JLINK_ReadReg(R3)  returns 0x08001F11 (0000ms, 0854ms total)
T0BAC 006:226 JLINK_ReadReg(R4)  returns 0x08002818 (0000ms, 0854ms total)
T0BAC 006:226 JLINK_ReadReg(R5)  returns 0x08002818 (0000ms, 0854ms total)
T0BAC 006:226 JLINK_ReadReg(R6)  returns 0x00000000 (0000ms, 0854ms total)
T0BAC 006:226 JLINK_ReadReg(R7)  returns 0x00000000 (0000ms, 0854ms total)
T0BAC 006:226 JLINK_ReadReg(R8)  returns 0x00000000 (0000ms, 0854ms total)
T0BAC 006:226 JLINK_ReadReg(R9)  returns 0x00000000 (0000ms, 0854ms total)
T0BAC 006:226 JLINK_ReadReg(R10)  returns 0x00000000 (0000ms, 0854ms total)
T0BAC 006:226 JLINK_ReadReg(R11)  returns 0x00000000 (0000ms, 0854ms total)
T0BAC 006:226 JLINK_ReadReg(R12)  returns 0x00000000 (0000ms, 0854ms total)
T0BAC 006:226 JLINK_ReadReg(R13 (SP))  returns 0x20001030 (0001ms, 0855ms total)
T0BAC 006:227 JLINK_ReadReg(R14)  returns 0x08001DBD (0000ms, 0855ms total)
T0BAC 006:227 JLINK_ReadReg(R15 (PC))  returns 0x08000292 (0000ms, 0855ms total)
T0BAC 006:227 JLINK_ReadReg(XPSR)  returns 0x61000000 (0000ms, 0855ms total)
T0BAC 006:227 JLINK_ReadReg(MSP)  returns 0x20001030 (0000ms, 0855ms total)
T0BAC 006:227 JLINK_ReadReg(PSP)  returns 0x00000000 (0000ms, 0855ms total)
T0BAC 006:227 JLINK_ReadReg(CFBP)  returns 0x00000000 (0000ms, 0855ms total)
T0CE4 006:258 JLINK_ReadMem (0x00000000, 0x0004 Bytes, ...) -- CPU_ReadMem(4 bytes @ 0x00000000) - Data: 30 10 00 20  returns 0x00 (0002ms, 0857ms total)
T0CE4 006:289 JLINK_ReadMemU32(0xE0001004, 0x0001 Items, ...) -- CPU_ReadMem(4 bytes @ 0xE0001004) - Data: FE 1E 00 00  returns 0x01 (0001ms, 0858ms total)
T0CE4 006:305 JLINK_ReadMem (0x08000290, 0x003C Bytes, ...) -- CPU_ReadMem(128 bytes @ 0x08000280) -- Updating DA cache (128 bytes @ 0x08000280) -- Read from DA cache (60 bytes @ 0x08000290) - Data: 10 BD 8E B0 00 BF 00 BF FF F7 B9 FF 00 F0 DC F8 ...  returns 0x00 (0005ms, 0863ms total)
T0CE4 006:404 JLINK_ReadMem (0x0800022E, 0x0002 Bytes, ...) -- CPU_ReadMem(64 bytes @ 0x08000200) -- Updating DA cache (64 bytes @ 0x08000200) -- Read from DA cache (2 bytes @ 0x0800022E) - Data: 4F F0  returns 0x00 (0003ms, 0866ms total)
T0CE4 006:407 JLINK_ReadMem (0x08000230, 0x003C Bytes, ...) -- CPU_ReadMem(64 bytes @ 0x08000240) -- Updating DA cache (64 bytes @ 0x08000240) -- Read from DA cache (60 bytes @ 0x08000230) - Data: 80 50 01 F0 61 F8 62 49 4F F4 80 30 00 F0 7F FA ...  returns 0x00 (0002ms, 0868ms total)
T0BAC 014:648 JLINK_Step() -- Read from DA cache (2 bytes @ 0x08000292) -- Simulated  returns 0x00 (0002ms, 0870ms total)
T0BAC 014:650 JLINK_ReadReg(R15 (PC))  returns 0x08000294 (0000ms, 0870ms total)
T0BAC 014:650 JLINK_ReadReg(XPSR)  returns 0x61000000 (0000ms, 0870ms total)
T0BAC 014:650 JLINK_ReadReg(R0)  returns 0x08000293 (0000ms, 0870ms total)
T0BAC 014:650 JLINK_ReadReg(R1)  returns 0x20001030 (0000ms, 0870ms total)
T0BAC 014:650 JLINK_ReadReg(R2)  returns 0x00000000 (0000ms, 0870ms total)
T0BAC 014:650 JLINK_ReadReg(R3)  returns 0x08001F11 (0000ms, 0870ms total)
T0BAC 014:650 JLINK_ReadReg(R4)  returns 0x08002818 (0000ms, 0870ms total)
T0BAC 014:650 JLINK_ReadReg(R5)  returns 0x08002818 (0001ms, 0871ms total)
T0BAC 014:651 JLINK_ReadReg(R6)  returns 0x00000000 (0000ms, 0871ms total)
T0BAC 014:651 JLINK_ReadReg(R7)  returns 0x00000000 (0000ms, 0871ms total)
T0BAC 014:651 JLINK_ReadReg(R8)  returns 0x00000000 (0000ms, 0871ms total)
T0BAC 014:651 JLINK_ReadReg(R9)  returns 0x00000000 (0000ms, 0871ms total)
T0BAC 014:651 JLINK_ReadReg(R10)  returns 0x00000000 (0000ms, 0871ms total)
T0BAC 014:651 JLINK_ReadReg(R11)  returns 0x00000000 (0000ms, 0871ms total)
T0BAC 014:651 JLINK_ReadReg(R12)  returns 0x00000000 (0000ms, 0871ms total)
T0BAC 014:651 JLINK_ReadReg(R13 (SP))  returns 0x20000FF8 (0000ms, 0871ms total)
T0BAC 014:651 JLINK_ReadReg(R14)  returns 0x08001DBD (0000ms, 0871ms total)
T0BAC 014:651 JLINK_ReadReg(R15 (PC))  returns 0x08000294 (0000ms, 0871ms total)
T0BAC 014:651 JLINK_ReadReg(XPSR)  returns 0x61000000 (0000ms, 0871ms total)
T0BAC 014:651 JLINK_ReadReg(MSP)  returns 0x20000FF8 (0000ms, 0871ms total)
T0BAC 014:651 JLINK_ReadReg(PSP)  returns 0x00000000 (0000ms, 0871ms total)
T0BAC 014:651 JLINK_ReadReg(CFBP)  returns 0x00000000 (0000ms, 0871ms total)
T0CE4 014:655 JLINK_ReadMem (0x00000000, 0x0004 Bytes, ...) -- CPU_ReadMem(4 bytes @ 0x00000000) - Data: 30 10 00 20  returns 0x00 (0002ms, 0873ms total)
T0CE4 014:657 JLINK_ReadMemU32(0xE0001004, 0x0001 Items, ...) - Data: FE 1E 00 00  returns 0x01 (0001ms, 0874ms total)
T0CE4 014:704 JLINK_ReadMem (0x08000294, 0x003C Bytes, ...) -- Read from DA cache (60 bytes @ 0x08000294) - Data: 00 BF 00 BF FF F7 B9 FF 00 F0 DC F8 4F F4 E1 30 ...  returns 0x00 (0000ms, 0874ms total)
T0BAC 016:437 JLINK_Step() -- Read from DA cache (2 bytes @ 0x08000294) -- Simulated  returns 0x00 (0003ms, 0877ms total)
T0BAC 016:440 JLINK_ReadReg(R15 (PC))  returns 0x08000296 (0000ms, 0877ms total)
T0BAC 016:440 JLINK_ReadReg(XPSR)  returns 0x61000000 (0000ms, 0877ms total)
T0BAC 016:440 JLINK_ReadReg(R0)  returns 0x08000293 (0000ms, 0877ms total)
T0BAC 016:440 JLINK_ReadReg(R1)  returns 0x20001030 (0000ms, 0877ms total)
T0BAC 016:440 JLINK_ReadReg(R2)  returns 0x00000000 (0000ms, 0877ms total)
T0BAC 016:440 JLINK_ReadReg(R3)  returns 0x08001F11 (0000ms, 0877ms total)
T0BAC 016:440 JLINK_ReadReg(R4)  returns 0x08002818 (0000ms, 0877ms total)
T0BAC 016:440 JLINK_ReadReg(R5)  returns 0x08002818 (0000ms, 0877ms total)
T0BAC 016:440 JLINK_ReadReg(R6)  returns 0x00000000 (0000ms, 0877ms total)
T0BAC 016:440 JLINK_ReadReg(R7)  returns 0x00000000 (0000ms, 0877ms total)
T0BAC 016:440 JLINK_ReadReg(R8)  returns 0x00000000 (0000ms, 0877ms total)
T0BAC 016:440 JLINK_ReadReg(R9)  returns 0x00000000 (0000ms, 0877ms total)
T0BAC 016:440 JLINK_ReadReg(R10)  returns 0x00000000 (0000ms, 0877ms total)
T0BAC 016:441 JLINK_ReadReg(R11)  returns 0x00000000 (0000ms, 0878ms total)
T0BAC 016:441 JLINK_ReadReg(R12)  returns 0x00000000 (0000ms, 0878ms total)
T0BAC 016:441 JLINK_ReadReg(R13 (SP))  returns 0x20000FF8 (0000ms, 0878ms total)
T0BAC 016:441 JLINK_ReadReg(R14)  returns 0x08001DBD (0000ms, 0878ms total)
T0BAC 016:441 JLINK_ReadReg(R15 (PC))  returns 0x08000296 (0000ms, 0878ms total)
T0BAC 016:441 JLINK_ReadReg(XPSR)  returns 0x61000000 (0000ms, 0878ms total)
T0BAC 016:441 JLINK_ReadReg(MSP)  returns 0x20000FF8 (0000ms, 0878ms total)
T0BAC 016:441 JLINK_ReadReg(PSP)  returns 0x00000000 (0000ms, 0878ms total)
T0BAC 016:441 JLINK_ReadReg(CFBP)  returns 0x00000000 (0000ms, 0878ms total)
T0CE4 016:444 JLINK_ReadMem (0x00000000, 0x0004 Bytes, ...) -- CPU_ReadMem(4 bytes @ 0x00000000) - Data: 30 10 00 20  returns 0x00 (0001ms, 0879ms total)
T0CE4 016:445 JLINK_ReadMemU32(0xE0001004, 0x0001 Items, ...) - Data: FE 1E 00 00  returns 0x01 (0000ms, 0879ms total)
T0CE4 016:474 JLINK_ReadMem (0x08000294, 0x003C Bytes, ...) -- Read from DA cache (60 bytes @ 0x08000294) - Data: 00 BF 00 BF FF F7 B9 FF 00 F0 DC F8 4F F4 E1 30 ...  returns 0x00 (0000ms, 0879ms total)
T0BAC 017:263 JLINK_Step() -- Read from DA cache (2 bytes @ 0x08000296) -- Simulated  returns 0x00 (0001ms, 0880ms total)
T0BAC 017:264 JLINK_ReadReg(R15 (PC))  returns 0x08000298 (0000ms, 0880ms total)
T0BAC 017:264 JLINK_ReadReg(XPSR)  returns 0x61000000 (0000ms, 0880ms total)
T0BAC 017:264 JLINK_ReadReg(R0)  returns 0x08000293 (0001ms, 0881ms total)
T0BAC 017:265 JLINK_ReadReg(R1)  returns 0x20001030 (0000ms, 0881ms total)
T0BAC 017:265 JLINK_ReadReg(R2)  returns 0x00000000 (0000ms, 0881ms total)
T0BAC 017:265 JLINK_ReadReg(R3)  returns 0x08001F11 (0000ms, 0881ms total)
T0BAC 017:265 JLINK_ReadReg(R4)  returns 0x08002818 (0000ms, 0881ms total)
T0BAC 017:265 JLINK_ReadReg(R5)  returns 0x08002818 (0000ms, 0881ms total)
T0BAC 017:265 JLINK_ReadReg(R6)  returns 0x00000000 (0000ms, 0881ms total)
T0BAC 017:265 JLINK_ReadReg(R7)  returns 0x00000000 (0000ms, 0881ms total)
T0BAC 017:265 JLINK_ReadReg(R8)  returns 0x00000000 (0000ms, 0881ms total)
T0BAC 017:265 JLINK_ReadReg(R9)  returns 0x00000000 (0000ms, 0881ms total)
T0BAC 017:265 JLINK_ReadReg(R10)  returns 0x00000000 (0000ms, 0881ms total)
T0BAC 017:265 JLINK_ReadReg(R11)  returns 0x00000000 (0000ms, 0881ms total)
T0BAC 017:265 JLINK_ReadReg(R12)  returns 0x00000000 (0000ms, 0881ms total)
T0BAC 017:265 JLINK_ReadReg(R13 (SP))  returns 0x20000FF8 (0000ms, 0881ms total)
T0BAC 017:265 JLINK_ReadReg(R14)  returns 0x08001DBD (0000ms, 0881ms total)
T0BAC 017:265 JLINK_ReadReg(R15 (PC))  returns 0x08000298 (0000ms, 0881ms total)
T0BAC 017:265 JLINK_ReadReg(XPSR)  returns 0x61000000 (0000ms, 0881ms total)
T0BAC 017:265 JLINK_ReadReg(MSP)  returns 0x20000FF8 (0000ms, 0881ms total)
T0BAC 017:265 JLINK_ReadReg(PSP)  returns 0x00000000 (0000ms, 0881ms total)
T0BAC 017:265 JLINK_ReadReg(CFBP)  returns 0x00000000 (0000ms, 0881ms total)
T0CE4 017:269 JLINK_ReadMem (0x00000000, 0x0004 Bytes, ...) -- CPU_ReadMem(4 bytes @ 0x00000000) - Data: 30 10 00 20  returns 0x00 (0001ms, 0882ms total)
T0CE4 017:271 JLINK_ReadMemU32(0xE0001004, 0x0001 Items, ...) - Data: FE 1E 00 00  returns 0x01 (0000ms, 0882ms total)
T0CE4 017:282 JLINK_ReadMem (0x08000296, 0x0002 Bytes, ...) -- Read from DA cache (2 bytes @ 0x08000296) - Data: 00 BF  returns 0x00 (0000ms, 0882ms total)
T0CE4 017:282 JLINK_ReadMem (0x08000298, 0x003C Bytes, ...) -- Read from DA cache (60 bytes @ 0x08000298) - Data: FF F7 B9 FF 00 F0 DC F8 4F F4 E1 30 FF F7 76 FF ...  returns 0x00 (0000ms, 0882ms total)
T0BAC 019:701 JLINK_Step() -- Read from DA cache (2 bytes @ 0x08000298) -- Not simulated -- CPU_WriteMem(4 bytes @ 0xE0002008) -- CPU_WriteMem(4 bytes @ 0xE000200C) -- CPU_WriteMem(4 bytes @ 0xE0001004)  returns 0x00 (0014ms, 0896ms total)
T0BAC 019:715 JLINK_ReadReg(R15 (PC))  returns 0x0800020E (0000ms, 0896ms total)
T0BAC 019:715 JLINK_ReadReg(XPSR)  returns 0x61000000 (0000ms, 0896ms total)
T0BAC 019:716 JLINK_ReadReg(R0)  returns 0x08000293 (0000ms, 0896ms total)
T0BAC 019:716 JLINK_ReadReg(R1)  returns 0x20001030 (0000ms, 0896ms total)
T0BAC 019:716 JLINK_ReadReg(R2)  returns 0x00000000 (0000ms, 0896ms total)
T0BAC 019:716 JLINK_ReadReg(R3)  returns 0x08001F11 (0000ms, 0896ms total)
T0BAC 019:716 JLINK_ReadReg(R4)  returns 0x08002818 (0000ms, 0896ms total)
T0BAC 019:716 JLINK_ReadReg(R5)  returns 0x08002818 (0000ms, 0896ms total)
T0BAC 019:716 JLINK_ReadReg(R6)  returns 0x00000000 (0000ms, 0896ms total)
T0BAC 019:716 JLINK_ReadReg(R7)  returns 0x00000000 (0000ms, 0896ms total)
T0BAC 019:716 JLINK_ReadReg(R8)  returns 0x00000000 (0000ms, 0896ms total)
T0BAC 019:716 JLINK_ReadReg(R9)  returns 0x00000000 (0000ms, 0896ms total)
T0BAC 019:716 JLINK_ReadReg(R10)  returns 0x00000000 (0000ms, 0896ms total)
T0BAC 019:716 JLINK_ReadReg(R11)  returns 0x00000000 (0000ms, 0896ms total)
T0BAC 019:716 JLINK_ReadReg(R12)  returns 0x00000000 (0000ms, 0896ms total)
T0BAC 019:716 JLINK_ReadReg(R13 (SP))  returns 0x20000FF8 (0000ms, 0896ms total)
T0BAC 019:716 JLINK_ReadReg(R14)  returns 0x0800029D (0000ms, 0896ms total)
T0BAC 019:716 JLINK_ReadReg(R15 (PC))  returns 0x0800020E (0000ms, 0896ms total)
T0BAC 019:716 JLINK_ReadReg(XPSR)  returns 0x61000000 (0000ms, 0896ms total)
T0BAC 019:716 JLINK_ReadReg(MSP)  returns 0x20000FF8 (0000ms, 0896ms total)
T0BAC 019:716 JLINK_ReadReg(PSP)  returns 0x00000000 (0001ms, 0897ms total)
T0BAC 019:717 JLINK_ReadReg(CFBP)  returns 0x00000000 (0000ms, 0897ms total)
T0CE4 019:733 JLINK_ReadMem (0x00000000, 0x0004 Bytes, ...) -- CPU_ReadMem(4 bytes @ 0x00000000) - Data: 30 10 00 20  returns 0x00 (0001ms, 0898ms total)
T0CE4 019:734 JLINK_ReadMemU32(0xE0001004, 0x0001 Items, ...) -- CPU_ReadMem(4 bytes @ 0xE0001004) - Data: 02 1F 00 00  returns 0x01 (0002ms, 0900ms total)
T0CE4 019:755 JLINK_ReadMem (0x0800020A, 0x0002 Bytes, ...) -- CPU_ReadMem(64 bytes @ 0x08000200) -- Updating DA cache (64 bytes @ 0x08000200) -- Read from DA cache (2 bytes @ 0x0800020A) - Data: 06 B0  returns 0x00 (0002ms, 0902ms total)
T0CE4 019:757 JLINK_ReadMem (0x0800020C, 0x003C Bytes, ...) -- CPU_ReadMem(64 bytes @ 0x08000240) -- Updating DA cache (64 bytes @ 0x08000240) -- Read from DA cache (60 bytes @ 0x0800020C) - Data: 10 BD 10 B5 00 F0 0E FA 4F F4 80 30 00 F0 29 FA ...  returns 0x00 (0002ms, 0904ms total)
T0BAC 021:796 JLINK_Step() -- Read from DA cache (2 bytes @ 0x0800020E) -- Not simulated  returns 0x00 (0010ms, 0914ms total)
T0BAC 021:806 JLINK_ReadReg(R15 (PC))  returns 0x08000210 (0000ms, 0914ms total)
T0BAC 021:806 JLINK_ReadReg(XPSR)  returns 0x61000000 (0000ms, 0914ms total)
T0BAC 021:806 JLINK_ReadReg(R0)  returns 0x08000293 (0000ms, 0914ms total)
T0BAC 021:806 JLINK_ReadReg(R1)  returns 0x20001030 (0000ms, 0914ms total)
T0BAC 021:806 JLINK_ReadReg(R2)  returns 0x00000000 (0000ms, 0914ms total)
T0BAC 021:806 JLINK_ReadReg(R3)  returns 0x08001F11 (0000ms, 0914ms total)
T0BAC 021:806 JLINK_ReadReg(R4)  returns 0x08002818 (0000ms, 0914ms total)
T0BAC 021:806 JLINK_ReadReg(R5)  returns 0x08002818 (0001ms, 0915ms total)
T0BAC 021:807 JLINK_ReadReg(R6)  returns 0x00000000 (0000ms, 0915ms total)
T0BAC 021:807 JLINK_ReadReg(R7)  returns 0x00000000 (0000ms, 0915ms total)
T0BAC 021:807 JLINK_ReadReg(R8)  returns 0x00000000 (0000ms, 0915ms total)
T0BAC 021:807 JLINK_ReadReg(R9)  returns 0x00000000 (0000ms, 0915ms total)
T0BAC 021:807 JLINK_ReadReg(R10)  returns 0x00000000 (0000ms, 0915ms total)
T0BAC 021:807 JLINK_ReadReg(R11)  returns 0x00000000 (0000ms, 0915ms total)
T0BAC 021:807 JLINK_ReadReg(R12)  returns 0x00000000 (0000ms, 0915ms total)
T0BAC 021:807 JLINK_ReadReg(R13 (SP))  returns 0x20000FF0 (0000ms, 0915ms total)
T0BAC 021:807 JLINK_ReadReg(R14)  returns 0x0800029D (0000ms, 0915ms total)
T0BAC 021:807 JLINK_ReadReg(R15 (PC))  returns 0x08000210 (0000ms, 0915ms total)
T0BAC 021:807 JLINK_ReadReg(XPSR)  returns 0x61000000 (0000ms, 0915ms total)
T0BAC 021:807 JLINK_ReadReg(MSP)  returns 0x20000FF0 (0000ms, 0915ms total)
T0BAC 021:807 JLINK_ReadReg(PSP)  returns 0x00000000 (0000ms, 0915ms total)
T0BAC 021:807 JLINK_ReadReg(CFBP)  returns 0x00000000 (0000ms, 0915ms total)
T0CE4 021:810 JLINK_ReadMem (0x20000FF4, 0x0004 Bytes, ...) -- CPU_ReadMem(4 bytes @ 0x20000FF4) - Data: 9D 02 00 08  returns 0x00 (0001ms, 0916ms total)
T0CE4 021:811 JLINK_ReadMem (0x20000FF0, 0x0004 Bytes, ...) -- CPU_ReadMem(4 bytes @ 0x20000FF0) - Data: 18 28 00 08  returns 0x00 (0001ms, 0917ms total)
T0CE4 021:812 JLINK_ReadMem (0x00000000, 0x0004 Bytes, ...) -- CPU_ReadMem(4 bytes @ 0x00000000) - Data: 30 10 00 20  returns 0x00 (0001ms, 0918ms total)
T0CE4 021:813 JLINK_ReadMemU32(0xE0001004, 0x0001 Items, ...) -- CPU_ReadMem(4 bytes @ 0xE0001004) - Data: 05 1F 00 00  returns 0x01 (0001ms, 0919ms total)
T0CE4 021:849 JLINK_ReadMem (0x08000210, 0x003C Bytes, ...) -- CPU_ReadMem(128 bytes @ 0x08000200) -- Updating DA cache (128 bytes @ 0x08000200) -- Read from DA cache (60 bytes @ 0x08000210) - Data: 00 F0 0E FA 4F F4 80 30 00 F0 29 FA 00 BF 31 20 ...  returns 0x00 (0004ms, 0923ms total)
T0BAC 022:488 JLINK_Step() -- Read from DA cache (2 bytes @ 0x08000210) -- Not simulated  returns 0x00 (0009ms, 0932ms total)
T0BAC 022:497 JLINK_ReadReg(R15 (PC))  returns 0x08000630 (0000ms, 0932ms total)
T0BAC 022:497 JLINK_ReadReg(XPSR)  returns 0x61000000 (0000ms, 0932ms total)
T0BAC 022:497 JLINK_ReadReg(R0)  returns 0x08000293 (0000ms, 0932ms total)
T0BAC 022:497 JLINK_ReadReg(R1)  returns 0x20001030 (0001ms, 0933ms total)
T0BAC 022:498 JLINK_ReadReg(R2)  returns 0x00000000 (0000ms, 0933ms total)
T0BAC 022:498 JLINK_ReadReg(R3)  returns 0x08001F11 (0000ms, 0933ms total)
T0BAC 022:498 JLINK_ReadReg(R4)  returns 0x08002818 (0000ms, 0933ms total)
T0BAC 022:498 JLINK_ReadReg(R5)  returns 0x08002818 (0000ms, 0933ms total)
T0BAC 022:498 JLINK_ReadReg(R6)  returns 0x00000000 (0000ms, 0933ms total)
T0BAC 022:498 JLINK_ReadReg(R7)  returns 0x00000000 (0000ms, 0933ms total)
T0BAC 022:498 JLINK_ReadReg(R8)  returns 0x00000000 (0000ms, 0933ms total)
T0BAC 022:498 JLINK_ReadReg(R9)  returns 0x00000000 (0000ms, 0933ms total)
T0BAC 022:498 JLINK_ReadReg(R10)  returns 0x00000000 (0000ms, 0933ms total)
T0BAC 022:498 JLINK_ReadReg(R11)  returns 0x00000000 (0000ms, 0933ms total)
T0BAC 022:498 JLINK_ReadReg(R12)  returns 0x00000000 (0000ms, 0933ms total)
T0BAC 022:498 JLINK_ReadReg(R13 (SP))  returns 0x20000FF0 (0000ms, 0933ms total)
T0BAC 022:498 JLINK_ReadReg(R14)  returns 0x08000215 (0000ms, 0933ms total)
T0BAC 022:498 JLINK_ReadReg(R15 (PC))  returns 0x08000630 (0000ms, 0933ms total)
T0BAC 022:498 JLINK_ReadReg(XPSR)  returns 0x61000000 (0000ms, 0933ms total)
T0BAC 022:498 JLINK_ReadReg(MSP)  returns 0x20000FF0 (0000ms, 0933ms total)
T0BAC 022:498 JLINK_ReadReg(PSP)  returns 0x00000000 (0000ms, 0933ms total)
T0BAC 022:498 JLINK_ReadReg(CFBP)  returns 0x00000000 (0000ms, 0933ms total)
T0CE4 022:501 JLINK_ReadMem (0x20000FF4, 0x0004 Bytes, ...) -- CPU_ReadMem(4 bytes @ 0x20000FF4) - Data: 9D 02 00 08  returns 0x00 (0003ms, 0936ms total)
T0CE4 022:504 JLINK_ReadMem (0x20000FF0, 0x0004 Bytes, ...) -- CPU_ReadMem(4 bytes @ 0x20000FF0) - Data: 18 28 00 08  returns 0x00 (0001ms, 0937ms total)
T0CE4 022:519 JLINK_ReadMem (0x00000000, 0x0004 Bytes, ...) -- CPU_ReadMem(4 bytes @ 0x00000000) - Data: 30 10 00 20  returns 0x00 (0002ms, 0939ms total)
T0CE4 022:521 JLINK_ReadMemU32(0xE0001004, 0x0001 Items, ...) -- CPU_ReadMem(4 bytes @ 0xE0001004) - Data: 06 1F 00 00  returns 0x01 (0002ms, 0941ms total)
T0CE4 022:542 JLINK_ReadMem (0x08000530, 0x003C Bytes, ...) -- CPU_ReadMem(128 bytes @ 0x08000500) -- Updating DA cache (128 bytes @ 0x08000500) -- Read from DA cache (60 bytes @ 0x08000530) - Data: 06 48 80 47 06 48 00 47 FE E7 FE E7 FE E7 FE E7 ...  returns 0x00 (0003ms, 0944ms total)
T0CE4 022:545 JLINK_ReadMem (0x0800056C, 0x003C Bytes, ...) -- CPU_ReadMem(64 bytes @ 0x08000580) -- Updating DA cache (64 bytes @ 0x08000580) -- Read from DA cache (60 bytes @ 0x0800056C) - Data: 24 68 04 F4 E0 64 C4 F5 E0 64 21 0A C1 F1 04 03 ...  returns 0x00 (0003ms, 0947ms total)
T0CE4 022:548 JLINK_ReadMem (0x080005A8, 0x003C Bytes, ...) -- CPU_ReadMem(64 bytes @ 0x080005C0) -- Updating DA cache (64 bytes @ 0x080005C0) -- Read from DA cache (60 bytes @ 0x080005A8) - Data: 00 41 09 E0 04 78 04 F0 1F 05 01 24 AC 40 1C 4D ...  returns 0x00 (0002ms, 0949ms total)
T0CE4 022:550 JLINK_ReadMem (0x080005E4, 0x003C Bytes, ...) -- CPU_ReadMem(64 bytes @ 0x08000600) -- Updating DA cache (64 bytes @ 0x08000600) -- Read from DA cache (60 bytes @ 0x080005E4) - Data: 12 1D 12 68 82 43 0D 4B 1B 1D 1A 60 70 47 04 28 ...  returns 0x00 (0003ms, 0952ms total)
T0CE4 022:553 JLINK_ReadMem (0x0800062E, 0x0002 Bytes, ...) -- Read from DA cache (2 bytes @ 0x0800062E) - Data: FF 1F  returns 0x00 (0000ms, 0952ms total)
T0CE4 022:553 JLINK_ReadMem (0x08000630, 0x003C Bytes, ...) -- CPU_ReadMem(64 bytes @ 0x08000640) -- Updating DA cache (64 bytes @ 0x08000640) -- Read from DA cache (60 bytes @ 0x08000630) - Data: F7 48 00 68 40 F0 01 00 F5 49 08 60 08 46 40 68 ...  returns 0x00 (0003ms, 0955ms total)
T0BAC 023:782 JLINK_Step() -- Read from DA cache (2 bytes @ 0x08000630) -- Not simulated  returns 0x00 (0011ms, 0966ms total)
T0BAC 023:793 JLINK_ReadReg(R15 (PC))  returns 0x08000632 (0000ms, 0966ms total)
T0BAC 023:793 JLINK_ReadReg(XPSR)  returns 0x61000000 (0000ms, 0966ms total)
T0BAC 023:793 JLINK_Step() -- CPU_ReadMem(64 bytes @ 0x08000600) -- Updating DA cache (64 bytes @ 0x08000600) -- Read from DA cache (2 bytes @ 0x08000632) -- CPU_ReadMem(4 bytes @ 0xE0001004) -- Not simulated  returns 0x00 (0011ms, 0977ms total)
T0BAC 023:804 JLINK_ReadReg(R15 (PC))  returns 0x08000634 (0000ms, 0977ms total)
T0BAC 023:804 JLINK_ReadReg(XPSR)  returns 0x61000000 (0000ms, 0977ms total)
T0BAC 023:804 JLINK_Step() -- CPU_ReadMem(64 bytes @ 0x08000600) -- Updating DA cache (64 bytes @ 0x08000600) -- Read from DA cache (2 bytes @ 0x08000634) -- CPU_ReadMem(4 bytes @ 0xE0001004) -- Not simulated  returns 0x00 (0011ms, 0988ms total)
T0BAC 023:815 JLINK_ReadReg(R15 (PC))  returns 0x08000638 (0000ms, 0988ms total)
T0BAC 023:815 JLINK_ReadReg(XPSR)  returns 0x61000000 (0000ms, 0988ms total)
T0BAC 023:815 JLINK_Step() -- CPU_ReadMem(64 bytes @ 0x08000600) -- Updating DA cache (64 bytes @ 0x08000600) -- Read from DA cache (2 bytes @ 0x08000638) -- CPU_ReadMem(4 bytes @ 0xE0001004) -- Not simulated  returns 0x00 (0012ms, 1000ms total)
T0BAC 023:827 JLINK_ReadReg(R15 (PC))  returns 0x0800063A (0000ms, 1000ms total)
T0BAC 023:827 JLINK_ReadReg(XPSR)  returns 0x61000000 (0000ms, 1000ms total)
T0BAC 023:827 JLINK_Step() -- CPU_ReadMem(64 bytes @ 0x08000600) -- Updating DA cache (64 bytes @ 0x08000600) -- Read from DA cache (2 bytes @ 0x0800063A) -- CPU_ReadMem(4 bytes @ 0xE0001004) -- Not simulated  returns 0x00 (0013ms, 1013ms total)
T0BAC 023:840 JLINK_ReadReg(R15 (PC))  returns 0x0800063C (0000ms, 1013ms total)
T0BAC 023:840 JLINK_ReadReg(XPSR)  returns 0x61000000 (0000ms, 1013ms total)
T0BAC 023:840 JLINK_ReadReg(R0)  returns 0x00008083 (0000ms, 1013ms total)
T0BAC 023:840 JLINK_ReadReg(R1)  returns 0x40021000 (0000ms, 1013ms total)
T0BAC 023:840 JLINK_ReadReg(R2)  returns 0x00000000 (0000ms, 1013ms total)
T0BAC 023:840 JLINK_ReadReg(R3)  returns 0x08001F11 (0000ms, 1013ms total)
T0BAC 023:840 JLINK_ReadReg(R4)  returns 0x08002818 (0000ms, 1013ms total)
T0BAC 023:840 JLINK_ReadReg(R5)  returns 0x08002818 (0000ms, 1013ms total)
T0BAC 023:840 JLINK_ReadReg(R6)  returns 0x00000000 (0000ms, 1013ms total)
T0BAC 023:840 JLINK_ReadReg(R7)  returns 0x00000000 (0000ms, 1013ms total)
T0BAC 023:840 JLINK_ReadReg(R8)  returns 0x00000000 (0000ms, 1013ms total)
T0BAC 023:840 JLINK_ReadReg(R9)  returns 0x00000000 (0000ms, 1013ms total)
T0BAC 023:840 JLINK_ReadReg(R10)  returns 0x00000000 (0000ms, 1013ms total)
T0BAC 023:840 JLINK_ReadReg(R11)  returns 0x00000000 (0000ms, 1013ms total)
T0BAC 023:840 JLINK_ReadReg(R12)  returns 0x00000000 (0000ms, 1013ms total)
T0BAC 023:841 JLINK_ReadReg(R13 (SP))  returns 0x20000FF0 (0000ms, 1014ms total)
T0BAC 023:841 JLINK_ReadReg(R14)  returns 0x08000215 (0000ms, 1014ms total)
T0BAC 023:841 JLINK_ReadReg(R15 (PC))  returns 0x0800063C (0000ms, 1014ms total)
T0BAC 023:841 JLINK_ReadReg(XPSR)  returns 0x61000000 (0000ms, 1014ms total)
T0BAC 023:841 JLINK_ReadReg(MSP)  returns 0x20000FF0 (0000ms, 1014ms total)
T0BAC 023:841 JLINK_ReadReg(PSP)  returns 0x00000000 (0000ms, 1014ms total)
T0BAC 023:841 JLINK_ReadReg(CFBP)  returns 0x00000000 (0000ms, 1014ms total)
T0CE4 023:841 JLINK_ReadMem (0x20000FF4, 0x0004 Bytes, ...) -- CPU_ReadMem(4 bytes @ 0x20000FF4) - Data: 9D 02 00 08  returns 0x00 (0001ms, 1015ms total)
T0CE4 023:842 JLINK_ReadMem (0x20000FF0, 0x0004 Bytes, ...) -- CPU_ReadMem(4 bytes @ 0x20000FF0) - Data: 18 28 00 08  returns 0x00 (0001ms, 1016ms total)
T0CE4 023:843 JLINK_ReadMem (0x00000000, 0x0004 Bytes, ...) -- CPU_ReadMem(4 bytes @ 0x00000000) - Data: 30 10 00 20  returns 0x00 (0001ms, 1017ms total)
T0CE4 023:844 JLINK_ReadMemU32(0xE0001004, 0x0001 Items, ...) -- CPU_ReadMem(4 bytes @ 0xE0001004) - Data: 7F 1F 00 00  returns 0x01 (0001ms, 1018ms total)
T0CE4 023:859 JLINK_ReadMem (0x08000630, 0x003C Bytes, ...) -- CPU_ReadMem(128 bytes @ 0x08000600) -- Updating DA cache (128 bytes @ 0x08000600) -- Read from DA cache (60 bytes @ 0x08000630) - Data: F7 48 00 68 40 F0 01 00 F5 49 08 60 08 46 40 68 ...  returns 0x00 (0004ms, 1022ms total)
T0BAC 024:413 JLINK_Step() -- Read from DA cache (2 bytes @ 0x0800063C) -- Simulated  returns 0x00 (0002ms, 1024ms total)
T0BAC 024:415 JLINK_ReadReg(R15 (PC))  returns 0x0800063E (0000ms, 1024ms total)
T0BAC 024:415 JLINK_ReadReg(XPSR)  returns 0x61000000 (0000ms, 1024ms total)
T0BAC 024:415 JLINK_Step() -- Read from DA cache (2 bytes @ 0x0800063E) -- Not simulated -- CPU_WriteMem(4 bytes @ 0xE0001004)  returns 0x00 (0012ms, 1036ms total)
T0BAC 024:427 JLINK_ReadReg(R15 (PC))  returns 0x08000640 (0000ms, 1036ms total)
T0BAC 024:427 JLINK_ReadReg(XPSR)  returns 0x61000000 (0000ms, 1036ms total)
T0BAC 024:427 JLINK_Step() -- CPU_ReadMem(64 bytes @ 0x08000640) -- Updating DA cache (64 bytes @ 0x08000640) -- Read from DA cache (2 bytes @ 0x08000640) -- CPU_ReadMem(4 bytes @ 0xE0001004) -- Not simulated  returns 0x00 (0011ms, 1047ms total)
T0BAC 024:438 JLINK_ReadReg(R15 (PC))  returns 0x08000644 (0000ms, 1047ms total)
T0BAC 024:438 JLINK_ReadReg(XPSR)  returns 0x61000000 (0000ms, 1047ms total)
T0BAC 024:438 JLINK_Step() -- CPU_ReadMem(64 bytes @ 0x08000640) -- Updating DA cache (64 bytes @ 0x08000640) -- Read from DA cache (2 bytes @ 0x08000644) -- CPU_ReadMem(4 bytes @ 0xE0001004) -- Not simulated  returns 0x00 (0011ms, 1058ms total)
T0BAC 024:449 JLINK_ReadReg(R15 (PC))  returns 0x08000646 (0001ms, 1059ms total)
T0BAC 024:450 JLINK_ReadReg(XPSR)  returns 0x61000000 (0000ms, 1059ms total)
T0BAC 024:450 JLINK_ReadReg(R0)  returns 0x00000000 (0000ms, 1059ms total)
T0BAC 024:450 JLINK_ReadReg(R1)  returns 0x40021000 (0000ms, 1059ms total)
T0BAC 024:450 JLINK_ReadReg(R2)  returns 0x00000000 (0000ms, 1059ms total)
T0BAC 024:450 JLINK_ReadReg(R3)  returns 0x08001F11 (0000ms, 1059ms total)
T0BAC 024:450 JLINK_ReadReg(R4)  returns 0x08002818 (0000ms, 1059ms total)
T0BAC 024:450 JLINK_ReadReg(R5)  returns 0x08002818 (0000ms, 1059ms total)
T0BAC 024:450 JLINK_ReadReg(R6)  returns 0x00000000 (0000ms, 1059ms total)
T0BAC 024:450 JLINK_ReadReg(R7)  returns 0x00000000 (0000ms, 1059ms total)
T0BAC 024:450 JLINK_ReadReg(R8)  returns 0x00000000 (0000ms, 1059ms total)
T0BAC 024:450 JLINK_ReadReg(R9)  returns 0x00000000 (0000ms, 1059ms total)
T0BAC 024:450 JLINK_ReadReg(R10)  returns 0x00000000 (0000ms, 1059ms total)
T0BAC 024:450 JLINK_ReadReg(R11)  returns 0x00000000 (0000ms, 1059ms total)
T0BAC 024:450 JLINK_ReadReg(R12)  returns 0x00000000 (0000ms, 1059ms total)
T0BAC 024:450 JLINK_ReadReg(R13 (SP))  returns 0x20000FF0 (0000ms, 1059ms total)
T0BAC 024:450 JLINK_ReadReg(R14)  returns 0x08000215 (0000ms, 1059ms total)
T0BAC 024:450 JLINK_ReadReg(R15 (PC))  returns 0x08000646 (0000ms, 1059ms total)
T0BAC 024:450 JLINK_ReadReg(XPSR)  returns 0x61000000 (0000ms, 1059ms total)
T0BAC 024:451 JLINK_ReadReg(MSP)  returns 0x20000FF0 (0000ms, 1060ms total)
T0BAC 024:451 JLINK_ReadReg(PSP)  returns 0x00000000 (0000ms, 1060ms total)
T0BAC 024:451 JLINK_ReadReg(CFBP)  returns 0x00000000 (0000ms, 1060ms total)
T0CE4 024:451 JLINK_ReadMem (0x20000FF4, 0x0004 Bytes, ...) -- CPU_ReadMem(4 bytes @ 0x20000FF4) - Data: 9D 02 00 08  returns 0x00 (0002ms, 1062ms total)
T0CE4 024:453 JLINK_ReadMem (0x20000FF0, 0x0004 Bytes, ...) -- CPU_ReadMem(4 bytes @ 0x20000FF0) - Data: 18 28 00 08  returns 0x00 (0001ms, 1063ms total)
T0CE4 024:454 JLINK_ReadMem (0x00000000, 0x0004 Bytes, ...) -- CPU_ReadMem(4 bytes @ 0x00000000) - Data: 30 10 00 20  returns 0x00 (0001ms, 1064ms total)
T0CE4 024:455 JLINK_ReadMemU32(0xE0001004, 0x0001 Items, ...) -- CPU_ReadMem(4 bytes @ 0xE0001004) - Data: 84 1F 00 00  returns 0x01 (0001ms, 1065ms total)
T0CE4 024:472 JLINK_ReadMem (0x0800063C, 0x003C Bytes, ...) -- CPU_ReadMem(128 bytes @ 0x08000600) -- Updating DA cache (128 bytes @ 0x08000600) -- Read from DA cache (60 bytes @ 0x0800063C) - Data: 08 46 40 68 00 F4 7F 00 48 60 08 46 00 68 F2 49 ...  returns 0x00 (0004ms, 1069ms total)
T0BAC 025:014 JLINK_Step() -- Read from DA cache (2 bytes @ 0x08000646) -- Simulated  returns 0x00 (0003ms, 1072ms total)
T0BAC 025:017 JLINK_ReadReg(R15 (PC))  returns 0x08000648 (0000ms, 1072ms total)
T0BAC 025:017 JLINK_ReadReg(XPSR)  returns 0x61000000 (0000ms, 1072ms total)
T0BAC 025:017 JLINK_Step() -- Read from DA cache (2 bytes @ 0x08000648) -- Not simulated -- CPU_WriteMem(4 bytes @ 0xE0001004)  returns 0x00 (0011ms, 1083ms total)
T0BAC 025:028 JLINK_ReadReg(R15 (PC))  returns 0x0800064A (0000ms, 1083ms total)
T0BAC 025:028 JLINK_ReadReg(XPSR)  returns 0x61000000 (0000ms, 1083ms total)
T0BAC 025:028 JLINK_Step() -- CPU_ReadMem(64 bytes @ 0x08000640) -- Updating DA cache (64 bytes @ 0x08000640) -- Read from DA cache (2 bytes @ 0x0800064A) -- CPU_ReadMem(4 bytes @ 0xE0001004) -- Not simulated  returns 0x00 (0011ms, 1094ms total)
T0BAC 025:039 JLINK_ReadReg(R15 (PC))  returns 0x0800064C (0000ms, 1094ms total)
T0BAC 025:039 JLINK_ReadReg(XPSR)  returns 0x61000000 (0000ms, 1094ms total)
T0BAC 025:039 JLINK_Step() -- CPU_ReadMem(64 bytes @ 0x08000640) -- Updating DA cache (64 bytes @ 0x08000640) -- Read from DA cache (2 bytes @ 0x0800064C) -- CPU_ReadMem(4 bytes @ 0xE0001004) -- Simulated  returns 0x00 (0003ms, 1097ms total)
T0BAC 025:042 JLINK_ReadReg(R15 (PC))  returns 0x0800064E (0000ms, 1097ms total)
T0BAC 025:042 JLINK_ReadReg(XPSR)  returns 0x21000000 (0000ms, 1097ms total)
T0BAC 025:042 JLINK_Step() -- Read from DA cache (2 bytes @ 0x0800064E) -- Not simulated -- CPU_WriteMem(4 bytes @ 0xE0001004)  returns 0x00 (0009ms, 1106ms total)
T0BAC 025:051 JLINK_ReadReg(R15 (PC))  returns 0x08000650 (0000ms, 1106ms total)
T0BAC 025:051 JLINK_ReadReg(XPSR)  returns 0x21000000 (0000ms, 1106ms total)
T0BAC 025:052 JLINK_Step() -- CPU_ReadMem(64 bytes @ 0x08000640) -- Updating DA cache (64 bytes @ 0x08000640) -- Read from DA cache (2 bytes @ 0x08000650) -- CPU_ReadMem(4 bytes @ 0xE0001004) -- Not simulated  returns 0x00 (0009ms, 1115ms total)
T0BAC 025:061 JLINK_ReadReg(R15 (PC))  returns 0x08000652 (0000ms, 1115ms total)
T0BAC 025:061 JLINK_ReadReg(XPSR)  returns 0x21000000 (0000ms, 1115ms total)
T0BAC 025:062 JLINK_ReadReg(R0)  returns 0x00008083 (0000ms, 1115ms total)
T0BAC 025:062 JLINK_ReadReg(R1)  returns 0x40021000 (0000ms, 1115ms total)
T0BAC 025:062 JLINK_ReadReg(R2)  returns 0x00000000 (0000ms, 1115ms total)
T0BAC 025:062 JLINK_ReadReg(R3)  returns 0x08001F11 (0000ms, 1115ms total)
T0BAC 025:062 JLINK_ReadReg(R4)  returns 0x08002818 (0000ms, 1115ms total)
T0BAC 025:062 JLINK_ReadReg(R5)  returns 0x08002818 (0000ms, 1115ms total)
T0BAC 025:062 JLINK_ReadReg(R6)  returns 0x00000000 (0000ms, 1115ms total)
T0BAC 025:062 JLINK_ReadReg(R7)  returns 0x00000000 (0000ms, 1115ms total)
T0BAC 025:062 JLINK_ReadReg(R8)  returns 0x00000000 (0000ms, 1115ms total)
T0BAC 025:062 JLINK_ReadReg(R9)  returns 0x00000000 (0000ms, 1115ms total)
T0BAC 025:062 JLINK_ReadReg(R10)  returns 0x00000000 (0000ms, 1115ms total)
T0BAC 025:062 JLINK_ReadReg(R11)  returns 0x00000000 (0000ms, 1115ms total)
T0BAC 025:062 JLINK_ReadReg(R12)  returns 0x00000000 (0000ms, 1115ms total)
T0BAC 025:062 JLINK_ReadReg(R13 (SP))  returns 0x20000FF0 (0000ms, 1115ms total)
T0BAC 025:062 JLINK_ReadReg(R14)  returns 0x08000215 (0000ms, 1115ms total)
T0BAC 025:062 JLINK_ReadReg(R15 (PC))  returns 0x08000652 (0000ms, 1115ms total)
T0BAC 025:062 JLINK_ReadReg(XPSR)  returns 0x21000000 (0000ms, 1115ms total)
T0BAC 025:062 JLINK_ReadReg(MSP)  returns 0x20000FF0 (0000ms, 1115ms total)
T0BAC 025:062 JLINK_ReadReg(PSP)  returns 0x00000000 (0000ms, 1115ms total)
T0BAC 025:062 JLINK_ReadReg(CFBP)  returns 0x00000000 (0000ms, 1115ms total)
T0CE4 025:063 JLINK_ReadMem (0x20000FF4, 0x0004 Bytes, ...) -- CPU_ReadMem(4 bytes @ 0x20000FF4) - Data: 9D 02 00 08  returns 0x00 (0001ms, 1116ms total)
T0CE4 025:064 JLINK_ReadMem (0x20000FF0, 0x0004 Bytes, ...) -- CPU_ReadMem(4 bytes @ 0x20000FF0) - Data: 18 28 00 08  returns 0x00 (0001ms, 1117ms total)
T0CE4 025:065 JLINK_ReadMem (0x00000000, 0x0004 Bytes, ...) -- CPU_ReadMem(4 bytes @ 0x00000000) - Data: 30 10 00 20  returns 0x00 (0001ms, 1118ms total)
T0CE4 025:066 JLINK_ReadMemU32(0xE0001004, 0x0001 Items, ...) -- CPU_ReadMem(4 bytes @ 0xE0001004) - Data: 8D 1F 00 00  returns 0x01 (0001ms, 1119ms total)
T0CE4 025:080 JLINK_ReadMem (0x08000646, 0x0002 Bytes, ...) -- CPU_ReadMem(64 bytes @ 0x08000640) -- Updating DA cache (64 bytes @ 0x08000640) -- Read from DA cache (2 bytes @ 0x08000646) - Data: 08 46  returns 0x00 (0003ms, 1122ms total)
T0CE4 025:083 JLINK_ReadMem (0x08000648, 0x003C Bytes, ...) -- CPU_ReadMem(64 bytes @ 0x08000680) -- Updating DA cache (64 bytes @ 0x08000680) -- Read from DA cache (60 bytes @ 0x08000648) - Data: 00 68 F2 49 08 40 F0 49 08 60 08 46 00 68 20 F4 ...  returns 0x00 (0003ms, 1125ms total)
T0BAC 025:574 JLINK_Step() -- Read from DA cache (2 bytes @ 0x08000652) -- Simulated  returns 0x00 (0002ms, 1127ms total)
T0BAC 025:576 JLINK_ReadReg(R15 (PC))  returns 0x08000654 (0000ms, 1127ms total)
T0BAC 025:576 JLINK_ReadReg(XPSR)  returns 0x21000000 (0000ms, 1127ms total)
T0BAC 025:576 JLINK_Step() -- Read from DA cache (2 bytes @ 0x08000654) -- Not simulated -- CPU_WriteMem(4 bytes @ 0xE0001004)  returns 0x00 (0011ms, 1138ms total)
T0BAC 025:587 JLINK_ReadReg(R15 (PC))  returns 0x08000656 (0000ms, 1138ms total)
T0BAC 025:587 JLINK_ReadReg(XPSR)  returns 0x21000000 (0000ms, 1138ms total)
T0BAC 025:587 JLINK_Step() -- CPU_ReadMem(64 bytes @ 0x08000640) -- Updating DA cache (64 bytes @ 0x08000640) -- Read from DA cache (2 bytes @ 0x08000656) -- CPU_ReadMem(4 bytes @ 0xE0001004) -- Not simulated  returns 0x00 (0012ms, 1150ms total)
T0BAC 025:599 JLINK_ReadReg(R15 (PC))  returns 0x0800065A (0000ms, 1150ms total)
T0BAC 025:599 JLINK_ReadReg(XPSR)  returns 0x21000000 (0000ms, 1150ms total)
T0BAC 025:599 JLINK_Step() -- CPU_ReadMem(64 bytes @ 0x08000640) -- Updating DA cache (64 bytes @ 0x08000640) -- Read from DA cache (2 bytes @ 0x0800065A) -- CPU_ReadMem(4 bytes @ 0xE0001004) -- Not simulated  returns 0x00 (0010ms, 1160ms total)
T0BAC 025:609 JLINK_ReadReg(R15 (PC))  returns 0x0800065C (0001ms, 1161ms total)
T0BAC 025:610 JLINK_ReadReg(XPSR)  returns 0x21000000 (0000ms, 1161ms total)
T0BAC 025:610 JLINK_ReadReg(R0)  returns 0x00008083 (0000ms, 1161ms total)
T0BAC 025:610 JLINK_ReadReg(R1)  returns 0x40021000 (0000ms, 1161ms total)
T0BAC 025:610 JLINK_ReadReg(R2)  returns 0x00000000 (0000ms, 1161ms total)
T0BAC 025:610 JLINK_ReadReg(R3)  returns 0x08001F11 (0000ms, 1161ms total)
T0BAC 025:610 JLINK_ReadReg(R4)  returns 0x08002818 (0000ms, 1161ms total)
T0BAC 025:610 JLINK_ReadReg(R5)  returns 0x08002818 (0000ms, 1161ms total)
T0BAC 025:610 JLINK_ReadReg(R6)  returns 0x00000000 (0000ms, 1161ms total)
T0BAC 025:610 JLINK_ReadReg(R7)  returns 0x00000000 (0000ms, 1161ms total)
T0BAC 025:610 JLINK_ReadReg(R8)  returns 0x00000000 (0000ms, 1161ms total)
T0BAC 025:610 JLINK_ReadReg(R9)  returns 0x00000000 (0000ms, 1161ms total)
T0BAC 025:610 JLINK_ReadReg(R10)  returns 0x00000000 (0000ms, 1161ms total)
T0BAC 025:610 JLINK_ReadReg(R11)  returns 0x00000000 (0000ms, 1161ms total)
T0BAC 025:610 JLINK_ReadReg(R12)  returns 0x00000000 (0000ms, 1161ms total)
T0BAC 025:610 JLINK_ReadReg(R13 (SP))  returns 0x20000FF0 (0000ms, 1161ms total)
T0BAC 025:610 JLINK_ReadReg(R14)  returns 0x08000215 (0000ms, 1161ms total)
T0BAC 025:610 JLINK_ReadReg(R15 (PC))  returns 0x0800065C (0000ms, 1161ms total)
T0BAC 025:610 JLINK_ReadReg(XPSR)  returns 0x21000000 (0000ms, 1161ms total)
T0BAC 025:610 JLINK_ReadReg(MSP)  returns 0x20000FF0 (0000ms, 1161ms total)
T0BAC 025:610 JLINK_ReadReg(PSP)  returns 0x00000000 (0001ms, 1162ms total)
T0BAC 025:611 JLINK_ReadReg(CFBP)  returns 0x00000000 (0000ms, 1162ms total)
T0CE4 025:611 JLINK_ReadMem (0x20000FF4, 0x0004 Bytes, ...) -- CPU_ReadMem(4 bytes @ 0x20000FF4) - Data: 9D 02 00 08  returns 0x00 (0001ms, 1163ms total)
T0CE4 025:612 JLINK_ReadMem (0x20000FF0, 0x0004 Bytes, ...) -- CPU_ReadMem(4 bytes @ 0x20000FF0) - Data: 18 28 00 08  returns 0x00 (0001ms, 1164ms total)
T0CE4 025:613 JLINK_ReadMem (0x00000000, 0x0004 Bytes, ...) -- CPU_ReadMem(4 bytes @ 0x00000000) - Data: 30 10 00 20  returns 0x00 (0001ms, 1165ms total)
T0CE4 025:615 JLINK_ReadMemU32(0xE0001004, 0x0001 Items, ...) -- CPU_ReadMem(4 bytes @ 0xE0001004) - Data: 92 1F 00 00  returns 0x01 (0001ms, 1166ms total)
T0CE4 025:632 JLINK_ReadMem (0x08000652, 0x0002 Bytes, ...) -- CPU_ReadMem(64 bytes @ 0x08000640) -- Updating DA cache (64 bytes @ 0x08000640) -- Read from DA cache (2 bytes @ 0x08000652) - Data: 08 46  returns 0x00 (0003ms, 1169ms total)
T0CE4 025:635 JLINK_ReadMem (0x08000654, 0x003C Bytes, ...) -- CPU_ReadMem(64 bytes @ 0x08000680) -- Updating DA cache (64 bytes @ 0x08000680) -- Read from DA cache (60 bytes @ 0x08000654) - Data: 00 68 20 F4 80 20 08 60 08 46 40 68 20 F4 FE 00 ...  returns 0x00 (0002ms, 1171ms total)
T0BAC 026:052 JLINK_Step() -- Read from DA cache (2 bytes @ 0x0800065C) -- Simulated  returns 0x00 (0001ms, 1172ms total)
T0BAC 026:053 JLINK_ReadReg(R15 (PC))  returns 0x0800065E (0000ms, 1172ms total)
T0BAC 026:053 JLINK_ReadReg(XPSR)  returns 0x21000000 (0001ms, 1173ms total)
T0BAC 026:054 JLINK_Step() -- Read from DA cache (2 bytes @ 0x0800065E) -- Not simulated -- CPU_WriteMem(4 bytes @ 0xE0001004)  returns 0x00 (0010ms, 1183ms total)
T0BAC 026:064 JLINK_ReadReg(R15 (PC))  returns 0x08000660 (0000ms, 1183ms total)
T0BAC 026:064 JLINK_ReadReg(XPSR)  returns 0x21000000 (0000ms, 1183ms total)
T0BAC 026:064 JLINK_Step() -- CPU_ReadMem(64 bytes @ 0x08000640) -- Updating DA cache (64 bytes @ 0x08000640) -- Read from DA cache (2 bytes @ 0x08000660) -- CPU_ReadMem(4 bytes @ 0xE0001004) -- Not simulated  returns 0x00 (0012ms, 1195ms total)
T0BAC 026:076 JLINK_ReadReg(R15 (PC))  returns 0x08000664 (0001ms, 1196ms total)
T0BAC 026:077 JLINK_ReadReg(XPSR)  returns 0x21000000 (0000ms, 1196ms total)
T0BAC 026:077 JLINK_Step() -- CPU_ReadMem(64 bytes @ 0x08000640) -- Updating DA cache (64 bytes @ 0x08000640) -- Read from DA cache (2 bytes @ 0x08000664) -- CPU_ReadMem(4 bytes @ 0xE0001004) -- Not simulated  returns 0x00 (0011ms, 1207ms total)
T0BAC 026:088 JLINK_ReadReg(R15 (PC))  returns 0x08000666 (0000ms, 1207ms total)
T0BAC 026:088 JLINK_ReadReg(XPSR)  returns 0x21000000 (0000ms, 1207ms total)
T0BAC 026:088 JLINK_ReadReg(R0)  returns 0x00000000 (0000ms, 1207ms total)
T0BAC 026:088 JLINK_ReadReg(R1)  returns 0x40021000 (0000ms, 1207ms total)
T0BAC 026:088 JLINK_ReadReg(R2)  returns 0x00000000 (0000ms, 1207ms total)
T0BAC 026:088 JLINK_ReadReg(R3)  returns 0x08001F11 (0001ms, 1208ms total)
T0BAC 026:089 JLINK_ReadReg(R4)  returns 0x08002818 (0000ms, 1208ms total)
T0BAC 026:089 JLINK_ReadReg(R5)  returns 0x08002818 (0000ms, 1208ms total)
T0BAC 026:089 JLINK_ReadReg(R6)  returns 0x00000000 (0000ms, 1208ms total)
T0BAC 026:089 JLINK_ReadReg(R7)  returns 0x00000000 (0000ms, 1208ms total)
